VERSION
8

COMMSETTINGS
0
COM3
COM2
9600
2
63
4
0
0

COMMDISPLAY
0

VERSATAP
0

CHANNELALIAS



SEND
0
1_Temperature (PV)
01 03 01 00 00 01 85 F6
0
5

SEND
1
1_SV1 TEMP
01 06 00 01 01 2D 19 87
0
5

SEND
2
1_Step 1 time
01 06 10 01 00 16 5D 04
0
5

SEND
3
1_Step 2 SV
01 06 10 03 00 EA FC 85
0
5

SEND
4
1_Step 2 time
01 06 10 04 00 1C CD 02
0
5

SEND
5
2_Read Temperature (PV)
02 03 01 00 00 01 85 C5
0
5

SEND
6
2_SV2 TEMP
02 06 00 01 00 00 D8 39
0
5

SEND
7
2_Step 2 time
02 06 10 01 00 00 DC F9
0
5

SEND
8
2_Step 2 SV
02 06 10 03 00 00 7D 39
0
5

SEND
9
2_Step 2 time
02 06 10 04 00 3C CC E9
0
5

SEND
10
3_Temperature (PV)
03 03 01 00 00 01 84 14
0
5

SEND
11
3_SV1 TEMP
03 06 00 01 00 00 D9 E8
0
5

SEND
12
3_Step 1 time
03 06 10 01 00 00 DD 28
0
5

SEND
13
3_Step 2 SV
03 06 10 03 00 00 7C E8
0
5

SEND
14
3_Step 2 time
03 06 10 04 00 3C CD 38
0
5

SEND
15
4_Read Temperature (PV)
04 03 01 00 00 01 85 F6
0
5

SEND
16
4_SV1 TEMP
04 06 00 01 01 2D 19 87
0
5

SEND
17
4_Step 1 time
04 06 10 01 00 16 5D 04
0
5

SEND
18
4_Step 2 SV
04 06 10 03 00 EA FC 85
0
5

SEND
19
1_Step 2 time
04 06 10 04 00 1C CD 02
0
5

SEND
20
t1 replay
01 03 02 00 78 85 76
0
5

SEND
21
t2 replay
02 03 02 00 78 85 76
0
5

SEND
22
t3 replay
03 03 02 00 78 85 76
0
5

SEND
23
t4 replay
04 03 02 00 78 85 76
0
5

RECEIVE
0
01 03 01 00 00 01 85 F6
01 03 01 00 00 01 85 F6
20
1
COMMENT 
0
1
0
0

RECEIVE
1
02 03 01 00 00 01 85 C5
02 03 01 00 00 01 85 C5
21
1
COMMENT 
0
1
0
0

RECEIVE
2
03 03 01 00 00 01 84 14
03 03 01 00 00 01 84 14
22
1
COMMENT 
0
1
0
0

RECEIVE
3
04 03 01 00 00 01 85 A3
04 03 01 00 00 01 85 A3
23
1
COMMENT 
0
1
0
0

RECEIVE
4

01 06 10 04 00 1C CD 02
-1
1
COMMENT 
0
1
0
0

